Standard ID: 0x371       DLC: 8  Data: 0x00 0x00 0x00 0x00 0x00 0x00 0x57 0x6B
Standard ID: 0x191       DLC: 8  Data: 0x08 0x00 0x80 0xA9 0xA9 0x24 0x01 0x3D
Standard ID: 0x094       DLC: 8  Data: 0x7F 0x9D 0x87 0xED 0xFD 0x00 0x0C 0x76
Standard ID: 0x1D5       DLC: 3  Data: 0x46 0xF5 0x16
Standard ID: 0x305       DLC: 7  Data: 0x80 0x54 0x00 0x00 0x00 0x00 0x2D
Standard ID: 0x130       DLC: 8  Data: 0x00 0xFD 0xFF 0xFF 0x00 0x00 0x04 0x17
Standard ID: 0x0C7       DLC: 4  Data: 0x26 0x38 0x58 0x32
Standard ID: 0x1FB       DLC: 1  Data: 0x1C
Standard ID: 0x31B       DLC: 8  Data: 0x00 0x00 0x00 0x00 0x00 0x00 0x00 0x27
Standard ID: 0x094       DLC: 8  Data: 0x7F 0x9D 0x87 0xED 0xFC 0x00 0x0C 0x77
Standard ID: 0x14A       DLC: 8  Data: 0x00 0x15 0x00 0x00 0x07 0x00 0x15 0x33
Standard ID: 0x191       DLC: 8  Data: 0x08 0x00 0x80 0xA9 0xA9 0x24 0x01 0x1F
Standard ID: 0x094       DLC: 8  Data: 0x7F 0x5D 0x87 0xED 0xFC 0x00 0x0C 0x5D
Standard ID: 0x1D6       DLC: 2  Data: 0x00 0x13
Standard ID: 0x0C7       DLC: 4  Data: 0x26 0x38 0x58 0x05
Standard ID: 0x1AB       DLC: 3  Data: 0x80 0x00 0x37
Standard ID: 0x1A7       DLC: 2  Data: 0x80 0x2C
Standard ID: 0x1ED       DLC: 5  Data: 0x00 0x00 0x00 0x00 0x2A
Standard ID: 0x191       DLC: 8  Data: 0x08 0x00 0x80 0xA9 0xA9 0x24 0x01 0x1F
Standard ID: 0x130       DLC: 8  Data: 0x01 0x25 0xFF 0xFF 0x00 0x00 0x04 0x1B
Standard ID: 0x221       DLC: 6  Data: 0x27 0x00 0x00 0x00 0x00 0x0A
Standard ID: 0x158       DLC: 8  Data: 0x00 0x00 0x00 0x24 0x00 0x00 0x00 0x31
Standard ID: 0x130       DLC: 8  Data: 0x01 0x34 0xFF 0xFF 0x00 0x00 0x04 0x39
Standard ID: 0x0C7       DLC: 4  Data: 0x26 0x38 0x58 0x14
Standard ID: 0x039       DLC: 3  Data: 0x00 0x00 0x2A
Standard ID: 0x17C       DLC: 8  Data: 0x00 0x00 0x03 0x74 0x01 0x00 0x20 0x03
Standard ID: 0x191       DLC: 8  Data: 0x08 0x00 0x80 0xA9 0xA9 0x24 0x01 0x1F
Standard ID: 0x094       DLC: 8  Data: 0x7F 0x5D 0x87 0xED 0xFD 0x00 0x0C 0x5C
Standard ID: 0x1DC       DLC: 7  Data: 0x02 0x03 0x74 0x00 0x00 0x00 0x3B
Standard ID: 0x1AC       DLC: 8  Data: 0x7F 0xFF 0x00 0x00 0x00 0x00 0x00 0x2B
Standard ID: 0x094       DLC: 8  Data: 0x7F 0x9D 0x87 0xF1 0xFE 0x00 0x0C 0x70
Standard ID: 0x130       DLC: 8  Data: 0x00 0x00 0xFF 0xFF 0x00 0x00 0x04 0x04
Standard ID: 0x1AC       DLC: 8  Data: 0x7F 0xFF 0x00 0x00 0x00 0x00 0x00 0x3A
Standard ID: 0x158       DLC: 8  Data: 0x00 0x00 0x00 0x00 0x00 0x00 0x00 0x28
Standard ID: 0x1ED       DLC: 5  Data: 0x00 0x00 0x00 0x00 0x1B
Standard ID: 0x1A4       DLC: 8  Data: 0x01 0x04 0x00 0x00 0x00 0x00 0x00 0x04
Standard ID: 0x094       DLC: 8  Data: 0x7F 0x9D 0x87 0xED 0xFD 0x00 0x0C 0x76
Standard ID: 0x17C       DLC: 8  Data: 0x00 0x00 0x03 0x75 0x01 0x00 0x20 0x02
Standard ID: 0x191       DLC: 8  Data: 0x08 0x00 0x80 0xA9 0xA9 0x24 0x01 0x1F
Standard ID: 0x094       DLC: 8  Data: 0x7F 0x5D 0x87 0xED 0xFD 0x00 0x0C 0x5C
Standard ID: 0x1DC       DLC: 7  Data: 0x02 0x03 0x72 0x00 0x00 0x00 0x3D
Standard ID: 0x1AC       DLC: 8  Data: 0x7F 0xFF 0x00 0x00 0x00 0x00 0x00 0x2B
Standard ID: 0x094       DLC: 8  Data: 0x7F 0x5D 0x87 0xF1 0xFD 0x00 0x0C 0x75
Standard ID: 0x130       DLC: 8  Data: 0x00 0x00 0xFF 0xFF 0x00 0x00 0x04 0x04
Standard ID: 0x1AC       DLC: 8  Data: 0x7F 0xFF 0x00 0x00 0x00 0x00 0x00 0x3A
Standard ID: 0x094       DLC: 8  Data: 0x7F 0x9D 0x87 0xED 0xFE 0x00 0x0C 0x57
Standard ID: 0x094       DLC: 8  Data: 0x7F 0x9D 0x87 0xED 0xFD 0x00 0x0C 0x49
Standard ID: 0x305       DLC: 7  Data: 0x80 0x54 0x00 0x00 0x00 0x00 0x2D
Standard ID: 0x191       DLC: 8  Data: 0x04 0x00 0x00 0xA9 0xA9 0x23 0x01 0x2B
Standard ID: 0x17C       DLC: 8  Data: 0x00 0x00 0x03 0x59 0x01 0x00 0x20 0x2E
Standard ID: 0x1FB       DLC: 1  Data: 0x1C
Standard ID: 0x191       DLC: 8  Data: 0x04 0x00 0x00 0xA9 0xA9 0x23 0x01 0x0D
Standard ID: 0x1EF       DLC: 8  Data: 0x03 0xFF 0x00 0x75 0x30 0x00 0x00 0x28
Standard ID: 0x1FB       DLC: 1  Data: 0x2B
Standard ID: 0x130       DLC: 8  Data: 0x00 0x00 0xFF 0xFF 0x00 0x00 0x04 0x13
Standard ID: 0x1A7       DLC: 2  Data: 0x00 0x15
Standard ID: 0x1ED       DLC: 5  Data: 0x00 0x00 0x00 0x00 0x1B
Standard ID: 0x1FB       DLC: 1  Data: 0x3A
Standard ID: 0x1AB       DLC: 3  Data: 0x80 0x01 0x36
Standard ID: 0x40F       DLC: 8  Data: 0xB1 0x0E 0x17 0x01 0x04 0x00 0x00 0x2C
Standard ID: 0x14A       DLC: 8  Data: 0x00 0x15 0x00 0x00 0x07 0x00 0x15 0x33
Standard ID: 0x467       DLC: 2  Data: 0x20 0x23
Standard ID: 0x158       DLC: 8  Data: 0x00 0x00 0x00 0x00 0x00 0x00 0x00 0x28
Standard ID: 0x1EF       DLC: 8  Data: 0x03 0xFF 0x00 0x75 0x30 0x00 0x00 0x19
Standard ID: 0x305       DLC: 7  Data: 0x80 0x54 0x00 0x00 0x00 0x00 0x3C
Standard ID: 0x1AB       DLC: 3  Data: 0x80 0x01 0x18
Standard ID: 0x1EF       DLC: 8  Data: 0x03 0xFF 0x00 0x75 0x30 0x00 0x00 0x28
Standard ID: 0x094       DLC: 8  Data: 0x7F 0x9D 0x87 0xF1 0xFD 0x00 0x0C 0x44
Standard ID: 0x1DA       DLC: 8  Data: 0x19 0x00 0xFA 0x00 0x00 0x00 0x00 0x0D
Standard ID: 0x1A7       DLC: 2  Data: 0x00 0x15
Standard ID: 0x094       DLC: 8  Data: 0x7F 0x5D 0x87 0xED 0xFE 0x00 0x0C 0x6A
